Time resolution is 1 ps
UVM_INFO /proj/xbuilds/SWIP/2021.1_0402_2220/installs/lin64/Vivado/2021.1/data/system_verilog/uvm_1.2/xlnx_uvm_package.sv(18601) @ 0: reporter [UVM/RELNOTES] 
      (Specify +UVM_NO_RELNOTES to turn off this notice)
  with `UVM_OBJECT_DO_NOT_NEED_CONSTRUCTOR undefined.

  You are using a version of the UVM library that has been compiled
  with `UVM_NO_DEPRECATED undefined.

  You are using a version of the UVM library that has been compiled

  ***********       IMPORTANT RELEASE NOTES         ************
----------------------------------------------------------------
(C) 2013-2014 NVIDIA Corporation
(C) 2011-2013 Cypress Semiconductor Corp.
(C) 2006-2014 Synopsys, Inc.
(C) 2007-2014 Cadence Design Systems, Inc.
(C) 2007-2014 Mentor Graphics Corporation


----------------------------------------------------------------

UVM_INFO @ 0: reporter [RNTST] Running test test...
UVM_INFO /proj/xbuilds/SWIP/2021.1_0402_2220/installs/lin64/Vivado/2021.1/data/system_verilog/uvm_1.2/xlnx_uvm_package.sv(20867) @ 0: reporter [UVM/COMP/NAMECHECK] This implementation of the component name checks requires DPI to be enabled
UVM_INFO U:/Documents/apb_ram/apb_ram.srcs/sim_1/new/tb.sv(381) @ 0: uvm_test_top.env.a.d [DRV] System Reset : Start of Simulation
UVM_INFO U:/Documents/apb_ram/apb_ram.srcs/sim_1/new/tb.sv(381) @ 10000: uvm_test_top.env.a.d [DRV] System Reset : Start of Simulation
UVM_INFO U:/Documents/apb_ram/apb_ram.srcs/sim_1/new/tb.sv(473) @ 10000: uvm_test_top.env.a.m [MON] SYSTEM RESET DETECTED
UVM_INFO U:/Documents/apb_ram/apb_ram.srcs/sim_1/new/tb.sv(528) @ 10000: uvm_test_top.env.s [SCO] SYSTEM RESET DETECTED
----------------------------------------------------------------
UVM_INFO U:/Documents/apb_ram/apb_ram.srcs/sim_1/new/tb.sv(473) @ 30000: uvm_test_top.env.a.m [MON] SYSTEM RESET DETECTED
UVM_INFO U:/Documents/apb_ram/apb_ram.srcs/sim_1/new/tb.sv(528) @ 30000: uvm_test_top.env.s [SCO] SYSTEM RESET DETECTED
----------------------------------------------------------------
UVM_INFO U:/Documents/apb_ram/apb_ram.srcs/sim_1/new/tb.sv(381) @ 30000: uvm_test_top.env.a.d [DRV] System Reset : Start of Simulation
UVM_INFO U:/Documents/apb_ram/apb_ram.srcs/sim_1/new/tb.sv(381) @ 50000: uvm_test_top.env.a.d [DRV] System Reset : Start of Simulation
UVM_INFO U:/Documents/apb_ram/apb_ram.srcs/sim_1/new/tb.sv(473) @ 50000: uvm_test_top.env.a.m [MON] SYSTEM RESET DETECTED
UVM_INFO U:/Documents/apb_ram/apb_ram.srcs/sim_1/new/tb.sv(528) @ 50000: uvm_test_top.env.s [SCO] SYSTEM RESET DETECTED
----------------------------------------------------------------
UVM_INFO U:/Documents/apb_ram/apb_ram.srcs/sim_1/new/tb.sv(473) @ 70000: uvm_test_top.env.a.m [MON] SYSTEM RESET DETECTED
UVM_INFO U:/Documents/apb_ram/apb_ram.srcs/sim_1/new/tb.sv(528) @ 70000: uvm_test_top.env.s [SCO] SYSTEM RESET DETECTED
----------------------------------------------------------------
UVM_INFO U:/Documents/apb_ram/apb_ram.srcs/sim_1/new/tb.sv(381) @ 70000: uvm_test_top.env.a.d [DRV] System Reset : Start of Simulation
UVM_INFO U:/Documents/apb_ram/apb_ram.srcs/sim_1/new/tb.sv(473) @ 90000: uvm_test_top.env.a.m [MON] SYSTEM RESET DETECTED
UVM_INFO U:/Documents/apb_ram/apb_ram.srcs/sim_1/new/tb.sv(528) @ 90000: uvm_test_top.env.s [SCO] SYSTEM RESET DETECTED
----------------------------------------------------------------
UVM_INFO U:/Documents/apb_ram/apb_ram.srcs/sim_1/new/tb.sv(413) @ 110000: uvm_test_top.env.a.d [DRV] mode:writed, addr:23, wdata:3597143171, rdata:x, slverr:x
UVM_INFO U:/Documents/apb_ram/apb_ram.srcs/sim_1/new/tb.sv(483) @ 170000: uvm_test_top.env.a.m [MON] DATA WRITE addr:23 data:3597143171 slverr:0
UVM_INFO U:/Documents/apb_ram/apb_ram.srcs/sim_1/new/tb.sv(539) @ 170000: uvm_test_top.env.s [SCO] DATA WRITE OP  addr:23, wdata:3597143171 arr_wr:3597143171
----------------------------------------------------------------
UVM_INFO U:/Documents/apb_ram/apb_ram.srcs/sim_1/new/tb.sv(413) @ 190000: uvm_test_top.env.a.d [DRV] mode:writed, addr:14, wdata:870342613, rdata:x, slverr:x
UVM_INFO U:/Documents/apb_ram/apb_ram.srcs/sim_1/new/tb.sv(483) @ 230000: uvm_test_top.env.a.m [MON] DATA WRITE addr:14 data:870342613 slverr:0
UVM_INFO U:/Documents/apb_ram/apb_ram.srcs/sim_1/new/tb.sv(539) @ 230000: uvm_test_top.env.s [SCO] DATA WRITE OP  addr:14, wdata:870342613 arr_wr:870342613
----------------------------------------------------------------
UVM_INFO U:/Documents/apb_ram/apb_ram.srcs/sim_1/new/tb.sv(413) @ 250000: uvm_test_top.env.a.d [DRV] mode:writed, addr:29, wdata:4006676106, rdata:x, slverr:x
UVM_INFO U:/Documents/apb_ram/apb_ram.srcs/sim_1/new/tb.sv(483) @ 290000: uvm_test_top.env.a.m [MON] DATA WRITE addr:29 data:4006676106 slverr:0
UVM_INFO U:/Documents/apb_ram/apb_ram.srcs/sim_1/new/tb.sv(539) @ 290000: uvm_test_top.env.s [SCO] DATA WRITE OP  addr:29, wdata:4006676106 arr_wr:4006676106
----------------------------------------------------------------
UVM_INFO U:/Documents/apb_ram/apb_ram.srcs/sim_1/new/tb.sv(413) @ 310000: uvm_test_top.env.a.d [DRV] mode:writed, addr:10, wdata:2268725369, rdata:x, slverr:x
UVM_INFO U:/Documents/apb_ram/apb_ram.srcs/sim_1/new/tb.sv(483) @ 350000: uvm_test_top.env.a.m [MON] DATA WRITE addr:10 data:2268725369 slverr:0
UVM_INFO U:/Documents/apb_ram/apb_ram.srcs/sim_1/new/tb.sv(539) @ 350000: uvm_test_top.env.s [SCO] DATA WRITE OP  addr:10, wdata:2268725369 arr_wr:2268725369
----------------------------------------------------------------
UVM_INFO U:/Documents/apb_ram/apb_ram.srcs/sim_1/new/tb.sv(413) @ 370000: uvm_test_top.env.a.d [DRV] mode:writed, addr:13, wdata:4246425039, rdata:x, slverr:x
UVM_INFO U:/Documents/apb_ram/apb_ram.srcs/sim_1/new/tb.sv(483) @ 410000: uvm_test_top.env.a.m [MON] DATA WRITE addr:13 data:4246425039 slverr:0
UVM_INFO U:/Documents/apb_ram/apb_ram.srcs/sim_1/new/tb.sv(539) @ 410000: uvm_test_top.env.s [SCO] DATA WRITE OP  addr:13, wdata:4246425039 arr_wr:4246425039
----------------------------------------------------------------
UVM_INFO U:/Documents/apb_ram/apb_ram.srcs/sim_1/new/tb.sv(413) @ 430000: uvm_test_top.env.a.d [DRV] mode:writed, addr:30, wdata:2423582319, rdata:x, slverr:x
UVM_INFO U:/Documents/apb_ram/apb_ram.srcs/sim_1/new/tb.sv(483) @ 470000: uvm_test_top.env.a.m [MON] DATA WRITE addr:30 data:2423582319 slverr:0
UVM_INFO U:/Documents/apb_ram/apb_ram.srcs/sim_1/new/tb.sv(539) @ 470000: uvm_test_top.env.s [SCO] DATA WRITE OP  addr:30, wdata:2423582319 arr_wr:2423582319
----------------------------------------------------------------
UVM_INFO U:/Documents/apb_ram/apb_ram.srcs/sim_1/new/tb.sv(413) @ 490000: uvm_test_top.env.a.d [DRV] mode:writed, addr:14, wdata:3242648203, rdata:x, slverr:x
UVM_INFO U:/Documents/apb_ram/apb_ram.srcs/sim_1/new/tb.sv(483) @ 530000: uvm_test_top.env.a.m [MON] DATA WRITE addr:14 data:3242648203 slverr:0
UVM_INFO U:/Documents/apb_ram/apb_ram.srcs/sim_1/new/tb.sv(539) @ 530000: uvm_test_top.env.s [SCO] DATA WRITE OP  addr:14, wdata:3242648203 arr_wr:3242648203
----------------------------------------------------------------
UVM_INFO U:/Documents/apb_ram/apb_ram.srcs/sim_1/new/tb.sv(413) @ 550000: uvm_test_top.env.a.d [DRV] mode:writed, addr:7, wdata:2408655284, rdata:x, slverr:x
UVM_INFO U:/Documents/apb_ram/apb_ram.srcs/sim_1/new/tb.sv(483) @ 590000: uvm_test_top.env.a.m [MON] DATA WRITE addr:7 data:2408655284 slverr:0
UVM_INFO U:/Documents/apb_ram/apb_ram.srcs/sim_1/new/tb.sv(539) @ 590000: uvm_test_top.env.s [SCO] DATA WRITE OP  addr:7, wdata:2408655284 arr_wr:2408655284
----------------------------------------------------------------
UVM_INFO U:/Documents/apb_ram/apb_ram.srcs/sim_1/new/tb.sv(413) @ 610000: uvm_test_top.env.a.d [DRV] mode:writed, addr:21, wdata:4216570999, rdata:x, slverr:x
UVM_INFO U:/Documents/apb_ram/apb_ram.srcs/sim_1/new/tb.sv(483) @ 650000: uvm_test_top.env.a.m [MON] DATA WRITE addr:21 data:4216570999 slverr:0
UVM_INFO U:/Documents/apb_ram/apb_ram.srcs/sim_1/new/tb.sv(539) @ 650000: uvm_test_top.env.s [SCO] DATA WRITE OP  addr:21, wdata:4216570999 arr_wr:4216570999
----------------------------------------------------------------
UVM_INFO U:/Documents/apb_ram/apb_ram.srcs/sim_1/new/tb.sv(413) @ 670000: uvm_test_top.env.a.d [DRV] mode:writed, addr:24, wdata:2223944332, rdata:x, slverr:x
UVM_INFO U:/Documents/apb_ram/apb_ram.srcs/sim_1/new/tb.sv(483) @ 710000: uvm_test_top.env.a.m [MON] DATA WRITE addr:24 data:2223944332 slverr:0
UVM_INFO U:/Documents/apb_ram/apb_ram.srcs/sim_1/new/tb.sv(539) @ 710000: uvm_test_top.env.s [SCO] DATA WRITE OP  addr:24, wdata:2223944332 arr_wr:2223944332
----------------------------------------------------------------
UVM_INFO U:/Documents/apb_ram/apb_ram.srcs/sim_1/new/tb.sv(413) @ 730000: uvm_test_top.env.a.d [DRV] mode:writed, addr:14, wdata:2873226200, rdata:x, slverr:x
UVM_INFO U:/Documents/apb_ram/apb_ram.srcs/sim_1/new/tb.sv(483) @ 770000: uvm_test_top.env.a.m [MON] DATA WRITE addr:14 data:2873226200 slverr:0
UVM_INFO U:/Documents/apb_ram/apb_ram.srcs/sim_1/new/tb.sv(539) @ 770000: uvm_test_top.env.s [SCO] DATA WRITE OP  addr:14, wdata:2873226200 arr_wr:2873226200
----------------------------------------------------------------
UVM_INFO U:/Documents/apb_ram/apb_ram.srcs/sim_1/new/tb.sv(413) @ 790000: uvm_test_top.env.a.d [DRV] mode:writed, addr:15, wdata:4016933012, rdata:x, slverr:x
UVM_INFO U:/Documents/apb_ram/apb_ram.srcs/sim_1/new/tb.sv(483) @ 830000: uvm_test_top.env.a.m [MON] DATA WRITE addr:15 data:4016933012 slverr:0
UVM_INFO U:/Documents/apb_ram/apb_ram.srcs/sim_1/new/tb.sv(539) @ 830000: uvm_test_top.env.s [SCO] DATA WRITE OP  addr:15, wdata:4016933012 arr_wr:4016933012
----------------------------------------------------------------
UVM_INFO U:/Documents/apb_ram/apb_ram.srcs/sim_1/new/tb.sv(413) @ 850000: uvm_test_top.env.a.d [DRV] mode:writed, addr:16, wdata:286355578, rdata:x, slverr:x
UVM_INFO U:/Documents/apb_ram/apb_ram.srcs/sim_1/new/tb.sv(483) @ 890000: uvm_test_top.env.a.m [MON] DATA WRITE addr:16 data:286355578 slverr:0
UVM_INFO U:/Documents/apb_ram/apb_ram.srcs/sim_1/new/tb.sv(539) @ 890000: uvm_test_top.env.s [SCO] DATA WRITE OP  addr:16, wdata:286355578 arr_wr:286355578
----------------------------------------------------------------
UVM_INFO U:/Documents/apb_ram/apb_ram.srcs/sim_1/new/tb.sv(413) @ 910000: uvm_test_top.env.a.d [DRV] mode:writed, addr:23, wdata:271428560, rdata:x, slverr:x
UVM_INFO U:/Documents/apb_ram/apb_ram.srcs/sim_1/new/tb.sv(483) @ 950000: uvm_test_top.env.a.m [MON] DATA WRITE addr:23 data:271428560 slverr:0
UVM_INFO U:/Documents/apb_ram/apb_ram.srcs/sim_1/new/tb.sv(539) @ 950000: uvm_test_top.env.s [SCO] DATA WRITE OP  addr:23, wdata:271428560 arr_wr:271428560
----------------------------------------------------------------
UVM_INFO U:/Documents/apb_ram/apb_ram.srcs/sim_1/new/tb.sv(413) @ 970000: uvm_test_top.env.a.d [DRV] mode:writed, addr:10, wdata:3972151907, rdata:x, slverr:x
